ID,Lat,LongW,Vg (mph),Vsust (mph),Lon
17089,17.68,64.900002,141.43,115.62,-64.900002
17090,17.68,64.889999,150.43,124.99,-64.889999
17531,17.690001,64.889999,137.77,111.36,-64.889999
17532,17.690001,64.879997,137.16,111.12,-64.879997
17533,17.690001,64.870003,136.13,109.95,-64.870003
17534,17.690001,64.860001,135.72,110.16,-64.860001
17535,17.690001,64.849998,133.32,107.14,-64.849998
17536,17.690001,64.839996,132.89,107.35,-64.839996
17537,17.690001,64.830002,132.53,107.66,-64.830002
17538,17.690001,64.82,132.32,108.38,-64.82
17539,17.690001,64.809998,135.45,112.65,-64.809998
17973,17.700001,64.879997,134.3,107.33,-64.879997
17974,17.700001,64.870003,133.19,106.34,-64.870003
17975,17.700001,64.860001,132.3,105.28,-64.860001
17976,17.700001,64.849998,131.51,104.9,-64.849998
17977,17.700001,64.839996,130.62,104.41,-64.839996
17978,17.700001,64.830002,129.83,104.1,-64.830002
17979,17.700001,64.82,129.08,103.77,-64.82
17980,17.700001,64.809998,128.42,103.62,-64.809998
17981,17.700001,64.800003,127.34,103.03,-64.800003
17982,17.700001,64.790001,126.87,102.64,-64.790001
17983,17.700001,64.779999,126.95,103.64,-64.779999
17985,17.700001,64.760002,125.67,103.4,-64.760002
17989,17.700001,64.720001,119.29,97.48,-64.720001
18414,17.709999,64.879997,132.55,104.9,-64.879997
18415,17.709999,64.870003,131.69,104.32,-64.870003
18416,17.709999,64.860001,130.81,103.68,-64.860001
18417,17.709999,64.849998,129.86,103.02,-64.849998
18418,17.709999,64.839996,128.87,102.32,-64.839996
18419,17.709999,64.830002,128.01,101.83,-64.830002
18420,17.709999,64.82,127.22,101.51,-64.82
18421,17.709999,64.809998,126.1,100.64,-64.809998
18422,17.709999,64.800003,125.32,100.04,-64.800003
18423,17.709999,64.790001,124.28,99.69,-64.790001
18424,17.709999,64.779999,123.31,98.63,-64.779999
18425,17.709999,64.769997,122.52,98.38,-64.769997
18426,17.709999,64.760002,121.95,98.54,-64.760002
18427,17.709999,64.75,120.05,97.48,-64.75
18428,17.709999,64.739998,118.53,95.27,-64.739998
18429,17.709999,64.730003,117.25,94.02,-64.730003
18430,17.709999,64.720001,116.67,93.96,-64.720001
18431,17.709999,64.709999,115.96,93.47,-64.709999
18432,17.709999,64.699997,115.55,93.42,-64.699997
18433,17.709999,64.690002,115.68,94.07,-64.690002
18855,17.719999,64.879997,131.1,103.53,-64.879997
18856,17.719999,64.870003,130.25,102.88,-64.870003
18857,17.719999,64.860001,129.31,102.32,-64.860001
18858,17.719999,64.849998,128.34,101.49,-64.849998
18859,17.719999,64.839996,127.4,100.76,-64.839996
18860,17.719999,64.830002,126.48,100.14,-64.830002
18861,17.719999,64.82,125.46,99.4,-64.82
18862,17.719999,64.809998,124.69,99.1,-64.809998
18863,17.719999,64.800003,123.45,98.02,-64.800003
18864,17.719999,64.790001,122.54,97.36,-64.790001
18865,17.719999,64.779999,121.31,96.66,-64.779999
18866,17.719999,64.769997,120.11,95.87,-64.769997
18867,17.719999,64.760002,118.85,94.34,-64.760002
18868,17.719999,64.75,117.46,93.21,-64.75
18869,17.719999,64.739998,116.55,92.59,-64.739998
18870,17.719999,64.730003,115.7,92.06,-64.730003
18871,17.719999,64.720001,115.01,91.63,-64.720001
18872,17.719999,64.709999,114.36,91.21,-64.709999
18873,17.719999,64.699997,114.09,91.38,-64.699997
18874,17.719999,64.690002,113.58,91.21,-64.690002
18875,17.719999,64.68,112.88,90.67,-64.68
18876,17.719999,64.669998,113.02,91.54,-64.669998
18877,17.719999,64.660004,116.18,96.19,-64.660004
19296,17.73,64.879997,129.84,102.3,-64.879997
19297,17.73,64.870003,128.8,101.53,-64.870003
19298,17.73,64.860001,127.96,100.92,-64.860001
19299,17.73,64.849998,127.07,100.28,-64.849998
19300,17.73,64.839996,125.99,99.37,-64.839996
19301,17.73,64.830002,125.06,98.71,-64.830002
19302,17.73,64.82,124.09,98.02,-64.82
19303,17.73,64.809998,123.04,97.22,-64.809998
19304,17.73,64.800003,121.81,96.21,-64.800003
19305,17.73,64.790001,121.05,96.01,-64.790001
19306,17.73,64.779999,119.56,94.68,-64.779999
19307,17.73,64.769997,118.32,93.38,-64.769997
19308,17.73,64.760002,116.65,92.32,-64.760002
19309,17.73,64.75,116.18,91.77,-64.75
19310,17.73,64.739998,115.37,91.31,-64.739998
19311,17.73,64.730003,114.59,90.75,-64.730003
19312,17.73,64.720001,113.95,90.34,-64.720001
19313,17.73,64.709999,113.47,90.16,-64.709999
19314,17.73,64.699997,112.86,89.77,-64.699997
19315,17.73,64.690002,112.24,89.39,-64.690002
19316,17.73,64.68,111.83,89.4,-64.68
19317,17.73,64.669998,111.35,89.22,-64.669998
19318,17.73,64.660004,110.86,89.11,-64.660004
19319,17.73,64.650002,110.16,88.37,-64.650002
19320,17.73,64.639999,110.33,89.2,-64.639999
19321,17.73,64.629997,111.26,91.16,-64.629997
19736,17.74,64.889999,129.7,102.07,-64.889999
19737,17.74,64.879997,128.73,101.34,-64.879997
19738,17.74,64.870003,127.6,100.41,-64.870003
19739,17.74,64.860001,126.57,99.64,-64.860001
19740,17.74,64.849998,125.66,99.04,-64.849998
19741,17.74,64.839996,124.73,98.48,-64.839996
19742,17.74,64.830002,123.48,97.43,-64.830002
19743,17.74,64.82,122.5,96.63,-64.82
19744,17.74,64.809998,121.44,95.82,-64.809998
19745,17.74,64.800003,120.25,94.66,-64.800003
19746,17.74,64.790001,118.51,93.39,-64.790001
19747,17.74,64.779999,118.08,92.98,-64.779999
19748,17.74,64.769997,117.05,92.23,-64.769997
19749,17.74,64.760002,116.09,91.51,-64.760002
19750,17.74,64.75,115.16,90.81,-64.75
19751,17.74,64.739998,114.29,90.14,-64.739998
19752,17.74,64.730003,113.71,89.84,-64.730003
19753,17.74,64.720001,113.11,89.45,-64.720001
19754,17.74,64.709999,112.48,89.01,-64.709999
19755,17.74,64.699997,111.93,88.7,-64.699997
19756,17.74,64.690002,111.19,88.11,-64.690002
19757,17.74,64.68,110.78,88.08,-64.68
19758,17.74,64.669998,110.01,87.41,-64.669998
19759,17.74,64.660004,109.56,87.2,-64.660004
19760,17.74,64.650002,109.18,87.22,-64.650002
19761,17.74,64.639999,108.81,87.04,-64.639999
19762,17.74,64.629997,108.55,87.2,-64.629997
19763,17.74,64.620003,108.07,86.96,-64.620003
19764,17.74,64.610001,109.09,89.02,-64.610001
20177,17.75,64.889999,128.42,100.95,-64.889999
20178,17.75,64.879997,127.48,100.24,-64.879997
20179,17.75,64.870003,126.49,99.47,-64.870003
20180,17.75,64.860001,125.27,98.42,-64.860001
20181,17.75,64.849998,124.23,97.61,-64.849998
20182,17.75,64.839996,123.33,97.03,-64.839996
20183,17.75,64.830002,122.49,96.56,-64.830002
20184,17.75,64.82,121.21,95.49,-64.82
20185,17.75,64.809998,120.03,94.35,-64.809998
20186,17.75,64.800003,118.9,93.49,-64.800003
20187,17.75,64.790001,117.7,92.51,-64.790001
20188,17.75,64.779999,116.9,91.96,-64.779999
20189,17.75,64.769997,115.92,91.19,-64.769997
20190,17.75,64.760002,115.02,90.53,-64.760002
20191,17.75,64.75,114.22,89.95,-64.75
20192,17.75,64.739998,113.46,89.39,-64.739998
20193,17.75,64.730003,112.81,89.43,-64.730003
20194,17.75,64.720001,114.04,92.28,-64.720001
20197,17.75,64.690002,110.34,87.2,-64.690002
20198,17.75,64.68,109.74,86.79,-64.68
20199,17.75,64.669998,109.19,86.47,-64.669998
20200,17.75,64.660004,108.74,86.29,-64.660004
20201,17.75,64.650002,108.23,85.99,-64.650002
20202,17.75,64.639999,107.71,85.61,-64.639999
20203,17.75,64.629997,107.43,85.67,-64.629997
20204,17.75,64.620003,107.26,85.93,-64.620003
20205,17.75,64.610001,107.1,86.28,-64.610001
20206,17.75,64.599998,106.94,86.62,-64.599998
20207,17.75,64.589996,105.99,85.6,-64.589996
20208,17.75,64.580002,105.97,85.81,-64.580002
20209,17.75,64.57,112.77,92.92,-64.57
20619,17.76,64.879997,126.1,99,-64.879997
20620,17.76,64.870003,125.16,98.27,-64.870003
20621,17.76,64.860001,124.14,97.46,-64.860001
20622,17.76,64.849998,123.09,96.64,-64.849998
20623,17.76,64.839996,122.04,95.82,-64.839996
20624,17.76,64.830002,120.91,94.96,-64.830002
20625,17.76,64.82,119.83,94.17,-64.82
20626,17.76,64.809998,118.73,93.39,-64.809998
20627,17.76,64.800003,117.48,92.28,-64.800003
20628,17.76,64.790001,116.56,91.51,-64.790001
20629,17.76,64.779999,116.07,91.41,-64.779999
20630,17.76,64.769997,115.2,90.78,-64.769997
20631,17.76,64.760002,114.22,90.63,-64.760002
20632,17.76,64.75,113.42,90.44,-64.75
20633,17.76,64.739998,114.07,90.99,-64.739998
20634,17.76,64.730003,115.16,93.33,-64.730003
20639,17.76,64.68,111.12,91.44,-64.68
20640,17.76,64.669998,109.06,88.7,-64.669998
20641,17.76,64.660004,109.22,90.21,-64.660004
20642,17.76,64.650002,108.49,88.07,-64.650002
20644,17.76,64.629997,108.52,89.06,-64.629997
20649,17.76,64.580002,108.92,89.97,-64.580002
21061,17.77,64.870003,130.43,107.67,-64.870003
21067,17.77,64.809998,117.79,92.82,-64.809998
21068,17.77,64.800003,117.1,92.4,-64.800003
21069,17.77,64.790001,115.87,91.18,-64.790001
21070,17.77,64.779999,115.01,90.52,-64.779999
21071,17.77,64.769997,114.92,91.08,-64.769997
21072,17.77,64.760002,114.5,92.75,-64.760002
21073,17.77,64.75,114.49,91.71,-64.75
21074,17.77,64.739998,115.79,94.33,-64.739998
21510,17.780001,64.790001,116.16,92.53,-64.790001
21511,17.780001,64.779999,115.8,92.67,-64.779999
21512,17.780001,64.769997,115.72,93.24,-64.769997
21513,17.780001,64.760002,117.89,97.01,-64.760002
21514,17.780001,64.75,115.37,93.72,-64.75
26188,17.889999,66.519997,94.07,76,-66.519997
27537,17.92,66.260002,111.87,92.11,-66.260002
27894,17.93,67.099998,76.6,62,-67.099998
27895,17.93,67.089996,77.74,63.49,-67.089996
27909,17.93,66.949997,82.44,66.22,-66.949997
27910,17.93,66.940002,81.77,64.71,-66.940002
27911,17.93,66.93,81.95,64.63,-66.93
27980,17.93,66.239998,114.5,95.02,-66.239998
27984,17.93,66.199997,113.6,91.33,-66.199997
28336,17.940001,67.089996,82.25,67.7,-67.089996
28344,17.940001,67.010002,80.56,65.07,-67.010002
28349,17.940001,66.959999,81.78,65.12,-66.959999
28350,17.940001,66.949997,80.77,63.44,-66.949997
28351,17.940001,66.940002,82.01,64.71,-66.940002
28416,17.940001,66.290001,110.99,91.22,-66.290001
28424,17.940001,66.209999,115.82,95.01,-66.209999
28425,17.940001,66.199997,117.25,96.55,-66.199997
28429,17.940001,66.160004,113.58,88.97,-66.160004
28430,17.940001,66.150002,113.95,89.26,-66.150002
28431,17.940001,66.139999,114.5,89.69,-66.139999
28765,17.950001,67.209999,73.8,59.85,-67.209999
28766,17.950001,67.199997,73.08,58.41,-67.199997
28772,17.950001,67.139999,73.89,58.05,-67.139999
28773,17.950001,67.129997,74.17,58.24,-67.129997
28774,17.950001,67.120003,74.45,58.43,-67.120003
28775,17.950001,67.110001,76.31,62.74,-67.110001
28776,17.950001,67.099998,75.02,58.83,-67.099998
28781,17.950001,67.050003,80.37,65.8,-67.050003
28788,17.950001,66.980003,82.5,66.7,-66.980003
28789,17.950001,66.970001,81.84,65.25,-66.970001
28790,17.950001,66.959999,80.79,63.77,-66.959999
28791,17.950001,66.949997,81.22,63.53,-66.949997
28792,17.950001,66.940002,81.62,63.83,-66.940002
28793,17.950001,66.93,81.89,63.97,-66.93
28794,17.950001,66.919998,82.31,64.3,-66.919998
28796,17.950001,66.900002,85.49,68.65,-66.900002
28797,17.950001,66.889999,83.65,65.43,-66.889999
28798,17.950001,66.879997,83.94,65.59,-66.879997
28799,17.950001,66.870003,84.32,65.89,-66.870003
28801,17.950001,66.849998,85,67.69,-66.849998
28802,17.950001,66.839996,85.34,66.69,-66.839996
28846,17.950001,66.400002,102.17,79.96,-66.400002
28847,17.950001,66.389999,102.56,80.26,-66.389999
28857,17.950001,66.290001,111.83,91.72,-66.290001
28858,17.950001,66.279999,107.22,83.95,-66.279999
28859,17.950001,66.269997,107.56,84.21,-66.269997
28860,17.950001,66.260002,107.84,84.43,-66.260002
28861,17.950001,66.25,107.95,84.52,-66.25
28862,17.950001,66.239998,108.36,84.84,-66.239998
28863,17.950001,66.230003,109.14,85.46,-66.230003
28868,17.950001,66.18,113.1,88.59,-66.18
28869,17.950001,66.169998,113.69,89.05,-66.169998
28870,17.950001,66.160004,114.13,89.4,-66.160004
28871,17.950001,66.150002,114.53,89.72,-66.150002
28872,17.950001,66.139999,114.94,90.04,-66.139999
28873,17.950001,66.129997,115.82,90.74,-66.129997
28874,17.950001,66.120003,116.62,91.37,-66.120003
28875,17.950001,66.110001,117.36,91.95,-66.110001
28881,17.950001,66.050003,119.8,93.88,-66.050003
29206,17.959999,67.209999,74.03,59.98,-67.209999
29207,17.959999,67.199997,73.48,58.78,-67.199997
29208,17.959999,67.190002,73.3,58.19,-67.190002
29211,17.959999,67.160004,73.78,58.13,-67.160004
29212,17.959999,67.150002,74.05,58.28,-67.150002
29213,17.959999,67.139999,74.34,58.47,-67.139999
29214,17.959999,67.129997,74.61,58.65,-67.129997
29215,17.959999,67.120003,74.9,58.86,-67.120003
29216,17.959999,67.110001,75.16,59.02,-67.110001
29217,17.959999,67.099998,75.4,59.16,-67.099998
29218,17.959999,67.089996,75.54,59.17,-67.089996
29229,17.959999,66.980003,81.07,65.37,-66.980003
29230,17.959999,66.970001,80.54,62.91,-66.970001
29231,17.959999,66.959999,81.01,63.28,-66.959999
29232,17.959999,66.949997,81.46,63.64,-66.949997
29233,17.959999,66.940002,81.88,63.96,-66.940002
29237,17.959999,66.900002,83.59,65.31,-66.900002
29238,17.959999,66.889999,84.02,65.65,-66.889999
29239,17.959999,66.879997,84.41,65.96,-66.879997
29240,17.959999,66.870003,84.76,66.23,-66.870003
29241,17.959999,66.860001,85.1,66.5,-66.860001
29242,17.959999,66.849998,85.45,66.77,-66.849998
29243,17.959999,66.839996,85.79,67.04,-66.839996
29244,17.959999,66.830002,86.1,67.29,-66.830002
29245,17.959999,66.82,86.38,67.51,-66.82
29269,17.959999,66.580002,94.04,76.78,-66.580002
29284,17.959999,66.43,105.04,85.08,-66.43
29285,17.959999,66.419998,103.74,82.91,-66.419998
29286,17.959999,66.410004,102.42,80.16,-66.410004
29287,17.959999,66.400002,102.72,80.39,-66.400002
29288,17.959999,66.389999,103.24,80.8,-66.389999
29289,17.959999,66.379997,103.71,81.17,-66.379997
29290,17.959999,66.370003,104.05,81.44,-66.370003
29297,17.959999,66.300003,106.72,84.29,-66.300003
29298,17.959999,66.290001,107.25,83.97,-66.290001
29299,17.959999,66.279999,107.8,84.4,-66.279999
29300,17.959999,66.269997,108.16,84.68,-66.269997
29301,17.959999,66.260002,108.46,84.93,-66.260002
29302,17.959999,66.25,108.57,85.01,-66.25
29303,17.959999,66.239998,108.88,85.25,-66.239998
29304,17.959999,66.230003,109.5,85.75,-66.230003
29308,17.959999,66.190002,112.94,88.46,-66.190002
29309,17.959999,66.18,113.64,89.02,-66.18
29310,17.959999,66.169998,114.23,89.48,-66.169998
29311,17.959999,66.160004,114.72,89.87,-66.160004
29312,17.959999,66.150002,115.11,90.17,-66.150002
29313,17.959999,66.139999,115.34,90.36,-66.139999
29314,17.959999,66.129997,116.22,91.05,-66.129997
29315,17.959999,66.120003,117.04,91.7,-66.120003
29316,17.959999,66.110001,117.76,92.27,-66.110001
29317,17.959999,66.099998,118.4,92.77,-66.099998
29321,17.959999,66.059998,120.08,94.1,-66.059998
29322,17.959999,66.050003,120.27,94.25,-66.050003
29323,17.959999,66.040001,120.29,94.27,-66.040001
29647,17.969999,67.209999,74.39,60.32,-67.209999
29648,17.969999,67.199997,73.61,58.74,-67.199997
29649,17.969999,67.190002,73.63,58.46,-67.190002
29650,17.969999,67.18,73.76,58.4,-67.18
29651,17.969999,67.169998,73.98,58.46,-67.169998
29652,17.969999,67.160004,74.24,58.6,-67.160004
29653,17.969999,67.150002,74.52,58.76,-67.150002
29654,17.969999,67.139999,74.8,58.93,-67.139999
29655,17.969999,67.129997,75.09,59.12,-67.129997
29656,17.969999,67.120003,75.33,59.25,-67.120003
29657,17.969999,67.110001,75.44,59.19,-67.110001
29658,17.969999,67.099998,75.68,59.32,-67.099998
29659,17.969999,67.089996,75.93,59.48,-67.089996
29660,17.969999,67.080002,76.08,59.53,-67.080002
29661,17.969999,67.07,83.91,69.01,-67.07
29663,17.969999,67.050003,77.21,60.36,-67.050003
29664,17.969999,67.040001,77.56,60.56,-67.040001
29665,17.969999,67.029999,78.05,60.95,-67.029999
29666,17.969999,67.019997,78.54,61.33,-67.019997
29667,17.969999,67.010002,79.02,61.71,-67.010002
29668,17.969999,67,79.49,62.08,-67
29669,17.969999,66.989998,79.98,62.47,-66.989998
29670,17.969999,66.980003,80.47,62.85,-66.980003
29671,17.969999,66.970001,80.96,63.24,-66.970001
29672,17.969999,66.959999,81.45,63.62,-66.959999
29673,17.969999,66.949997,81.89,63.97,-66.949997
29674,17.969999,66.940002,82.31,64.3,-66.940002
29675,17.969999,66.93,82.73,64.64,-66.93
29676,17.969999,66.919998,83.17,64.98,-66.919998
29677,17.969999,66.910004,83.61,65.33,-66.910004
29678,17.969999,66.900002,84.04,65.67,-66.900002
29679,17.969999,66.889999,84.48,66.01,-66.889999
29680,17.969999,66.879997,84.84,66.3,-66.879997
29681,17.969999,66.870003,85.2,66.58,-66.870003
29682,17.969999,66.860001,85.55,66.85,-66.860001
29683,17.969999,66.849998,85.9,67.13,-66.849998
29684,17.969999,66.839996,86.24,67.4,-66.839996
29685,17.969999,66.830002,86.54,67.64,-66.830002
29686,17.969999,66.82,86.81,67.84,-66.82
29687,17.969999,66.809998,87.07,68.05,-66.809998
29688,17.969999,66.800003,90.08,72.72,-66.800003
29689,17.969999,66.790001,90.04,72.47,-66.790001
29700,17.969999,66.68,90.71,71.96,-66.68
29701,17.969999,66.669998,89.55,70.01,-66.669998
29707,17.969999,66.610001,93.29,75.22,-66.610001
29708,17.969999,66.599998,92.06,71.99,-66.599998
29709,17.969999,66.589996,92.4,72.26,-66.589996
29710,17.969999,66.580002,93.24,72.91,-66.580002
29711,17.969999,66.57,94.02,73.53,-66.57
29712,17.969999,66.559998,94.7,74.06,-66.559998
29724,17.969999,66.440002,106.53,87.36,-66.440002
29725,17.969999,66.43,102.32,80.29,-66.43
29726,17.969999,66.419998,102.63,80.32,-66.419998
29727,17.969999,66.410004,102.91,80.54,-66.410004
29728,17.969999,66.400002,103.39,80.92,-66.400002
29729,17.969999,66.389999,103.92,81.34,-66.389999
29730,17.969999,66.379997,104.37,81.69,-66.379997
29731,17.969999,66.370003,104.69,81.94,-66.370003
29732,17.969999,66.360001,104.99,82.19,-66.360001
29733,17.969999,66.349998,105.45,82.55,-66.349998
29737,17.969999,66.309998,107.01,83.78,-66.309998
29738,17.969999,66.300003,107.25,83.97,-66.300003
29739,17.969999,66.290001,107.83,84.42,-66.290001
29740,17.969999,66.279999,108.34,84.83,-66.279999
29741,17.969999,66.269997,108.77,85.17,-66.269997
29742,17.969999,66.260002,109.05,85.39,-66.260002
29743,17.969999,66.25,109.21,85.51,-66.25
29744,17.969999,66.239998,109.38,85.65,-66.239998
29745,17.969999,66.230003,109.93,86.08,-66.230003
29746,17.969999,66.220001,110.82,86.78,-66.220001
29747,17.969999,66.209999,111.73,87.51,-66.209999
29748,17.969999,66.199997,112.61,88.2,-66.199997
29749,17.969999,66.190002,113.4,88.82,-66.190002
29750,17.969999,66.18,114.14,89.41,-66.18
29751,17.969999,66.169998,114.76,89.9,-66.169998
29752,17.969999,66.160004,115.29,90.32,-66.160004
29753,17.969999,66.150002,115.69,90.63,-66.150002
29754,17.969999,66.139999,115.94,90.83,-66.139999
29755,17.969999,66.129997,116.59,91.35,-66.129997
29756,17.969999,66.120003,117.41,91.99,-66.120003
29757,17.969999,66.110001,118.13,92.56,-66.110001
29758,17.969999,66.099998,118.79,93.08,-66.099998
29759,17.969999,66.089996,119.35,93.52,-66.089996
29760,17.969999,66.080002,119.84,93.91,-66.080002
29761,17.969999,66.07,120.23,94.22,-66.07
29762,17.969999,66.059998,120.55,94.47,-66.059998
29763,17.969999,66.050003,120.74,94.62,-66.050003
29764,17.969999,66.040001,120.81,94.67,-66.040001
29765,17.969999,66.029999,120.71,94.6,-66.029999
29770,17.969999,65.980003,118.04,92.49,-65.980003
29774,17.969999,65.940002,127.57,105.69,-65.940002
30088,17.98,67.209999,74.43,60.14,-67.209999
30089,17.98,67.199997,74.08,59.25,-67.199997
30090,17.98,67.190002,74.11,58.99,-67.190002
30091,17.98,67.18,74.29,59,-67.18
30092,17.98,67.169998,74.5,59.03,-67.169998
30093,17.98,67.160004,74.75,59.16,-67.160004
30094,17.98,67.150002,75.01,59.28,-67.150002
30095,17.98,67.139999,75.3,59.46,-67.139999
30096,17.98,67.129997,75.53,59.55,-67.129997
30097,17.98,67.120003,75.58,59.37,-67.120003
30098,17.98,67.110001,75.81,59.48,-67.110001
30099,17.98,67.099998,76.03,59.59,-67.099998
30100,17.98,67.089996,76.22,59.68,-67.089996
30101,17.98,67.080002,76.47,59.86,-67.080002
30102,17.98,67.07,76.47,59.7,-67.07
30103,17.98,67.059998,77.15,60.33,-67.059998
30104,17.98,67.050003,77.61,60.68,-67.050003
30105,17.98,67.040001,78.09,61.05,-67.040001
30106,17.98,67.029999,78.44,61.26,-67.029999
30107,17.98,67.019997,78.93,61.64,-67.019997
